[2026-May-29 11:04:18] [debug] --------------------------------------------------------------------------------
[2026-May-29 11:04:18] [debug] C:\Program Files\Nordic Semiconductor\nrf-command-line-tools\bin\nrfjprog.exe --recover --log 
[2026-May-29 11:04:18] [debug] nrfjprog version 10.24.2 external
[2026-May-29 11:04:18] [debug] --------------------------------------------------------------------------------
[2026-May-29 11:04:18] [ info] Load library at C:\Program Files\Nordic Semiconductor\nrf-command-line-tools\bin\nrfjprog.dll.
[2026-May-29 11:04:18] [ info] Library loaded, loading member functions.
[2026-May-29 11:04:18] [ info] Member functions succesfully loaded.
[2026-May-29 11:04:19] [debug] [ Client] - open
[2026-May-29 11:04:19] [debug] [ Client] - start
[2026-May-29 11:04:19] [ info] [ Client] - stdout: Jlinkarm nRF Worker ready. Handling sequence f4259d32-8b62-4654-9599-e95bbb0a17f2.
[2026-May-29 11:04:19] [trace] [ Client] - Command open executed for 107 milliseconds with result 0
[2026-May-29 11:04:19] [debug] [SeggerBackend] - Logger sink registered in Segger backend logger
[2026-May-29 11:04:19] [debug] [ Client] - config
[2026-May-29 11:04:19] [debug] [  JLink] - Logger sink registered in JLink logger
[2026-May-29 11:04:19] [debug] [  nRFXX] - open
[2026-May-29 11:04:19] [debug] [  nRFXX] - just_check_family
[2026-May-29 11:04:19] [debug] [SeggerBackend] - open_dll
[2026-May-29 11:04:19] [debug] [SeggerBackend] - No J-Link DLL path was provided. Attempting to auto detect.
[2026-May-29 11:04:19] [ info] [SeggerBackend] - Load library at C:\Program Files\SEGGER\JLink_V926\JLink_x64.dll.
[2026-May-29 11:04:19] [ info] [SeggerBackend] - Library loaded, loading member functions.
[2026-May-29 11:04:19] [ info] [SeggerBackend] - Member functions succesfully loaded.
[2026-May-29 11:04:19] [debug] [SeggerBackend] - Set batch mode
[2026-May-29 11:04:19] [error] [SeggerBackend] - JLinkARM.dll reported error -256 at line 736.
[2026-May-29 11:04:19] [debug] [SeggerBackend] - dll_version
[2026-May-29 11:04:19] [error] [SeggerBackend] - JLinkARM.dll reported error -256 at line 629.
[2026-May-29 11:04:19] [ info] [SeggerBackend] - Segger dll version 9.26.  loaded.
[2026-May-29 11:04:19] [trace] [ Worker] - Command open executed for 9 milliseconds with result 0
[2026-May-29 11:04:19] [trace] [ Client] - Command config executed for 15 milliseconds with result 0
[2026-May-29 11:04:19] [debug] [ Client] - enum_emu_snr
[2026-May-29 11:04:19] [debug] [  nRFXX] - config
[2026-May-29 11:04:19] [debug] [SeggerBackend] - enum_emu_snr
[2026-May-29 11:04:19] [trace] [ Worker] - Command config executed for 10 milliseconds with result 0
[2026-May-29 11:04:19] [trace] [ Client] - Command enum_emu_con_info executed for 15 milliseconds with result 0
[2026-May-29 11:04:19] [debug] [ Client] - connect_to_emu_with_snr
[2026-May-29 11:04:19] [debug] [  nRFXX] - enum_emu_con_info
[2026-May-29 11:04:19] [debug] [SeggerBackend] - is_connected_to_emu
[2026-May-29 11:04:19] [error] [SeggerBackend] - JLinkARM.dll reported error -256 at line 3139.
[2026-May-29 11:04:19] [debug] [SeggerBackend] - enum_emu_con_info
[2026-May-29 11:04:19] [error] [SeggerBackend] - JLinkARM.dll reported error -256 at line 911.
[2026-May-29 11:04:19] [debug] [SeggerBackend] - is_connected_to_emu
[2026-May-29 11:04:19] [error] [SeggerBackend] - JLinkARM.dll reported error -256 at line 3139.
[2026-May-29 11:04:19] [trace] [ Worker] - Command enum_emu_con_info executed for 6 milliseconds with result 0
[2026-May-29 11:04:19] [debug] [  nRFXX] - connect_to_emu_with_snr
[2026-May-29 11:04:19] [debug] [SeggerBackend] - is_connected_to_emu
[2026-May-29 11:04:19] [error] [SeggerBackend] - JLinkARM.dll reported error -256 at line 3139.
[2026-May-29 11:04:19] [debug] [SeggerBackend] - connect_to_emu_with_snr
[2026-May-29 11:04:19] [debug] [SeggerBackend] - is_connected_to_emu
[2026-May-29 11:04:19] [error] [SeggerBackend] - JLinkARM.dll reported error -256 at line 3139.
[2026-May-29 11:04:19] [debug] [SeggerBackend] - ---just_enum_emu_snr
[2026-May-29 11:04:19] [debug] [SeggerBackend] - ---just_get_num_emus
[2026-May-29 11:04:19] [error] [SeggerBackend] - JLinkARM.dll reported error -256 at line 3087.
[2026-May-29 11:04:19] [error] [SeggerBackend] - JLinkARM.dll reported error -256 at line 3112.
[2026-May-29 11:04:19] [debug] [SeggerBackend] - ---just_connect_to_emu_with_snr
[2026-May-29 11:04:19] [error] [SeggerBackend] - JLinkARM.dll reported error -256 at line 3349.
[2026-May-29 11:04:19] [debug] [SeggerBackend] - ---just_connect_to_emu_without_snr
[2026-May-29 11:04:19] [debug] [SeggerBackend] - Segger logging enabled.
[2026-May-29 11:04:19] [error] [SeggerBackend] - JLinkARM.dll reported error -256 at line 3160.
[2026-May-29 11:04:19] [error] [SeggerBackend] - JLinkARM.dll reported error -256 at line 3176.
[2026-May-29 11:04:19] [trace] [  JLink] - Firmware: J-Link OB-nRF5340-NordicSemi compiled Jul  8 2025 10:15:34
[2026-May-29 11:04:19] [trace] [  JLink] - Firmware: J-Link OB-nRF5340-NordicSemi compiled Jul  8 2025 10:15:34
[2026-May-29 11:04:19] [trace] [  JLink] - Hardware: V1.00
[2026-May-29 11:04:19] [trace] [  JLink] - S/N: 1050024588
[2026-May-29 11:04:19] [trace] [  JLink] - OEM: SEGGER
[2026-May-29 11:04:19] [trace] [  JLink] - Feature(s): RDI, FlashBP, FlashDL, JFlash, GDB
[2026-May-29 11:04:19] [trace] [  JLink] - Bootloader: 2021 May 18
[2026-May-29 11:04:19] [trace] [  JLink] - USB speed mode: Full speed (12 MBit/s)
[2026-May-29 11:04:19] [trace] [  JLink] - TELNET listener socket opened on port 19021
[2026-May-29 11:04:19] [trace] [  JLink] - WEBSRV WEBSRV_Init(): Starting webserver thread(s)
[2026-May-29 11:04:19] [trace] [  JLink] - WEBSRV Webserver running on local port 19080
[2026-May-29 11:04:19] [trace] [  JLink] - Looking for J-Link GUI Server exe at: C:\Program Files\SEGGER\JLink_V926\JLinkGUIServer.exe 
[2026-May-29 11:04:19] [trace] [  JLink] - Forking J-Link GUI Server: C:\Program Files\SEGGER\JLink_V926\JLinkGUIServer.exe 
[2026-May-29 11:04:19] [trace] [  JLink] - J-Link GUI Server info: "J-Link GUI server V9.26 " 
[2026-May-29 11:04:19] [trace] [  JLink] - Device "CORTEX-M4" selected.
[2026-May-29 11:04:19] [trace] [  JLink] - - 308.418ms returns 0x00  
[2026-May-29 11:04:19] [trace] [  JLink] - JLINK_HasError()  
[2026-May-29 11:04:19] [trace] [  JLink] - JLINK_OpenEx(...)  
[2026-May-29 11:04:19] [trace] [  JLink] - Firmware: J-Link OB-nRF5340-NordicSemi compiled Jul  8 2025 10:15:34
[2026-May-29 11:04:19] [trace] [  JLink] - Firmware: J-Link OB-nRF5340-NordicSemi compiled Jul  8 2025 10:15:34
[2026-May-29 11:04:19] [trace] [  JLink] - Hardware: V1.00
[2026-May-29 11:04:19] [trace] [  JLink] - S/N: 1050024588
[2026-May-29 11:04:19] [trace] [  JLink] - OEM: SEGGER
[2026-May-29 11:04:19] [trace] [  JLink] - Feature(s): RDI, FlashBP, FlashDL, JFlash, GDB
[2026-May-29 11:04:19] [trace] [  JLink] - Bootloader: 2021 May 18
[2026-May-29 11:04:19] [trace] [  JLink] - USB speed mode: Full speed (12 MBit/s)
[2026-May-29 11:04:19] [trace] [  JLink] - TELNET listener socket opened on port 19021
[2026-May-29 11:04:19] [trace] [  JLink] - WEBSRV WEBSRV_Init(): Starting webserver thread(s)
[2026-May-29 11:04:19] [trace] [  JLink] - WEBSRV Webserver running on local port 19080
[2026-May-29 11:04:19] [trace] [  JLink] - Looking for J-Link GUI Server exe at: C:\Program Files\SEGGER\JLink_V926\JLinkGUIServer.exe 
[2026-May-29 11:04:19] [trace] [  JLink] - Forking J-Link GUI Server: C:\Program Files\SEGGER\JLink_V926\JLinkGUIServer.exe 
[2026-May-29 11:04:19] [trace] [  JLink] - J-Link GUI Server info: "J-Link GUI server V9.26 " 
[2026-May-29 11:04:19] [trace] [  JLink] - - 65.891ms returns "O.K."  
[2026-May-29 11:04:19] [trace] [  JLink] - JLINK_HasError()  
[2026-May-29 11:04:19] [trace] [  JLink] - JLINK_Lock()  
[2026-May-29 11:04:19] [trace] [  JLink] - JLINK_ExecCommand("SetRestartOnClose = 0", ...).   
[2026-May-29 11:04:19] [trace] [  JLink] - - 0.020ms returns 0x01  
[2026-May-29 11:04:19] [trace] [  JLink] - JLINK_HasError()  
[2026-May-29 11:04:19] [trace] [  JLink] - JLINK_ExecCommand("DisableFlashDL", ...).   
[2026-May-29 11:04:19] [trace] [  JLink] - - 0.013ms returns 0x00  
[2026-May-29 11:04:19] [trace] [  JLink] - JLINK_HasError()  
[2026-May-29 11:04:19] [trace] [  JLink] - JLINK_ExecCommand("ExcludeFlashCacheRange 0x0-0xFFFFFFFF", ...).   
[2026-May-29 11:04:19] [trace] [  JLink] - - 0.021ms returns 0x00  
[2026-May-29 11:04:19] [trace] [  JLink] - JLINK_HasError()  
[2026-May-29 11:04:19] [trace] [  JLink] - JLINK_SetHookUnsecureDialog  
[2026-May-29 11:04:19] [trace] [  JLink] - JLINK_SetHookUnsecureDialog(...)
[2026-May-29 11:04:19] [trace] [  JLink] - - 0.021ms returns 0  
[2026-May-29 11:04:19] [trace] [  JLink] - JLINK_HasError()  
[2026-May-29 11:04:19] [trace] [  JLink] - JLINK_TIF_Select(JLINKARM_TIF_SWD)  
[2026-May-29 11:04:19] [trace] [  JLink] - - 7.631ms returns 0x00  
[2026-May-29 11:04:19] [trace] [  JLink] - JLINK_HasError()  
[2026-May-29 11:04:19] [trace] [  JLink] - JLINK_GetSpeedInfo()  
[2026-May-29 11:04:19] [trace] [  JLink] - 128000000 Hz / n, n >= 64
[2026-May-29 11:04:19] [trace] [  JLink] - - 0.019ms   
[2026-May-29 11:04:19] [trace] [  JLink] - JLINK_HasError()  
[2026-May-29 11:04:19] [debug] [SeggerBackend] - Connected emulator supports SWD speeds up to 2000kHz
[2026-May-29 11:04:19] [trace] [  JLink] - JLINK_SetSpeed(2000)  
[2026-May-29 11:04:19] [trace] [  JLink] - - 0.115ms   
[2026-May-29 11:04:19] [trace] [  JLink] - JLINK_HasError()  
[2026-May-29 11:04:19] [trace] [  JLink] - JLINK_GetSpeed()  
[2026-May-29 11:04:19] [trace] [  JLink] - - 0.013ms returns 2000  
[2026-May-29 11:04:19] [trace] [  JLink] - JLINK_HasError()  
[2026-May-29 11:04:19] [debug] [SeggerBackend] - SWD clock set to 2000kHz
[2026-May-29 11:04:19] [trace] [  JLink] - JLINK_GetSN()  
[2026-May-29 11:04:19] [trace] [  JLink] - - 0.015ms returns 1050024588  
[2026-May-29 11:04:19] [trace] [  JLink] - JLINK_HasError()  
[2026-May-29 11:04:19] [trace] [  JLink] - - 0.017ms   
[2026-May-29 11:04:19] [debug] [  nRFXX] - read_device_family
[2026-May-29 11:04:19] [debug] [  nRFXX] - read_device_family
[2026-May-29 11:04:19] [debug] [SeggerBackend] - is_connected_to_emu
[2026-May-29 11:04:19] [trace] [  JLink] - JLINK_IsOpen()  
[2026-May-29 11:04:19] [trace] [  JLink] - - 0.021ms returns 0x01  
[2026-May-29 11:04:19] [trace] [  JLink] - JLINK_HasError()  
[2026-May-29 11:04:19] [trace] [  JLink] - JLINK_Lock()  
[2026-May-29 11:04:19] [debug] [SeggerBackend] - is_connected_to_emu
[2026-May-29 11:04:19] [debug] [SeggerBackend] - read_debug_port_idr
[2026-May-29 11:04:19] [debug] [SeggerBackend] - read_debug_port_register
[2026-May-29 11:04:19] [debug] [SeggerBackend] - ---just_read_debug_port_register
[2026-May-29 11:04:19] [debug] [SeggerBackend] - coresight_configure
[2026-May-29 11:04:19] [trace] [  JLink] - JLINK_GetHWStatus(...)  
[2026-May-29 11:04:19] [trace] [  JLink] - - 2.099ms returns 0  
[2026-May-29 11:04:19] [trace] [  JLink] - JLINK_HasError()  
[2026-May-29 11:04:19] [trace] [  JLink] - JLINK_CORESIGHT_Configure()  
[2026-May-29 11:04:19] [trace] [  JLink] - - 0.465ms returns 0  
[2026-May-29 11:04:19] [trace] [  JLink] - JLINK_HasError()  
[2026-May-29 11:04:19] [debug] [SeggerBackend] - read_debug_port_idr
[2026-May-29 11:04:19] [debug] [SeggerBackend] - read_debug_port_register
[2026-May-29 11:04:19] [debug] [SeggerBackend] - ---just_read_debug_port_register
[2026-May-29 11:04:19] [debug] [SeggerBackend] - ---just_select_debug_port_register
[2026-May-29 11:04:19] [debug] [SeggerBackend] - Select AP 255, DP Bank 0, AP Bank 255
[2026-May-29 11:04:19] [trace] [  JLink] - JLINK_CORESIGHT_WriteAPDPReg(DP reg 0x02, 0x00000000)  
[2026-May-29 11:04:19] [trace] [  JLink] - - 1.646ms returns 0  
[2026-May-29 11:04:19] [trace] [  JLink] - JLINK_HasError()  
[2026-May-29 11:04:19] [trace] [  JLink] - JLINK_CORESIGHT_ReadAPDPReg(DP reg 0x00)  
[2026-May-29 11:04:19] [trace] [  JLink] - Value=0x6BA02477
[2026-May-29 11:04:19] [trace] [  JLink] - - 1.967ms returns 0  
[2026-May-29 11:04:19] [trace] [  JLink] - JLINK_HasError()  
[2026-May-29 11:04:19] [debug] [SeggerBackend] - ---just_select_debug_port_register
[2026-May-29 11:04:19] [trace] [  JLink] - JLINK_CORESIGHT_ReadAPDPReg(DP reg 0x00)  
[2026-May-29 11:04:19] [trace] [  JLink] - Value=0x6BA02477
[2026-May-29 11:04:19] [trace] [  JLink] - - 0.301ms returns 0  
[2026-May-29 11:04:19] [trace] [  JLink] - JLINK_HasError()  
[2026-May-29 11:04:19] [debug] [SeggerBackend] - read_access_port_idr
[2026-May-29 11:04:19] [debug] [SeggerBackend] - read_access_port_register
[2026-May-29 11:04:19] [debug] [SeggerBackend] - ---just_read_access_port_register
[2026-May-29 11:04:19] [debug] [SeggerBackend] - ---just_is_debug_region_powered
[2026-May-29 11:04:19] [debug] [SeggerBackend] - ---just_read_debug_port_register
[2026-May-29 11:04:19] [debug] [SeggerBackend] - ---just_select_debug_port_register
[2026-May-29 11:04:19] [trace] [  JLink] - JLINK_CORESIGHT_ReadAPDPReg(DP reg 0x01)  
[2026-May-29 11:04:19] [trace] [  JLink] - Value=0xF0000000
[2026-May-29 11:04:19] [trace] [  JLink] - - 0.482ms returns 0  
[2026-May-29 11:04:19] [trace] [  JLink] - JLINK_HasError()  
[2026-May-29 11:04:19] [debug] [SeggerBackend] - ---just_select_access_port_register
[2026-May-29 11:04:19] [debug] [SeggerBackend] - Select AP 0, DP Bank 0, AP Bank 15
[2026-May-29 11:04:19] [trace] [  JLink] - JLINK_CORESIGHT_WriteAPDPReg(DP reg 0x02, 0x000000F0)  
[2026-May-29 11:04:19] [trace] [  JLink] - - 0.795ms returns 0  
[2026-May-29 11:04:19] [trace] [  JLink] - JLINK_HasError()  
[2026-May-29 11:04:19] [trace] [  JLink] - JLINK_CORESIGHT_ReadAPDPReg(AP reg 0x03)  
[2026-May-29 11:04:19] [trace] [  JLink] - Value=0x84770001
[2026-May-29 11:04:19] [trace] [  JLink] - - 2.301ms returns 0  
[2026-May-29 11:04:19] [trace] [  JLink] - JLINK_HasError()  
[2026-May-29 11:04:19] [debug] [SeggerBackend] - read_access_port_register
[2026-May-29 11:04:19] [debug] [SeggerBackend] - ---just_read_access_port_register
[2026-May-29 11:04:19] [debug] [SeggerBackend] - ---just_select_access_port_register
[2026-May-29 11:04:19] [debug] [SeggerBackend] - Select AP 0, DP Bank 0, AP Bank 0
[2026-May-29 11:04:19] [trace] [  JLink] - JLINK_CORESIGHT_WriteAPDPReg(DP reg 0x02, 0x00000000)  
[2026-May-29 11:04:19] [trace] [  JLink] - - 0.675ms returns 0  
[2026-May-29 11:04:19] [trace] [  JLink] - JLINK_HasError()  
[2026-May-29 11:04:19] [trace] [  JLink] - JLINK_CORESIGHT_ReadAPDPReg(AP reg 0x00)  
[2026-May-29 11:04:19] [trace] [  JLink] - Value=0x43000002
[2026-May-29 11:04:19] [trace] [  JLink] - - 0.289ms returns 0  
[2026-May-29 11:04:19] [trace] [  JLink] - JLINK_HasError()  
[2026-May-29 11:04:19] [debug] [SeggerBackend] - read_access_port_idr
[2026-May-29 11:04:19] [debug] [SeggerBackend] - read_access_port_register
[2026-May-29 11:04:19] [debug] [SeggerBackend] - ---just_read_access_port_register
[2026-May-29 11:04:19] [debug] [SeggerBackend] - ---just_select_access_port_register
[2026-May-29 11:04:19] [debug] [SeggerBackend] - Select AP 1, DP Bank 0, AP Bank 15
[2026-May-29 11:04:19] [trace] [  JLink] - JLINK_CORESIGHT_WriteAPDPReg(DP reg 0x02, 0x010000F0)  
[2026-May-29 11:04:19] [trace] [  JLink] - - 0.274ms returns 0  
[2026-May-29 11:04:19] [trace] [  JLink] - JLINK_HasError()  
[2026-May-29 11:04:19] [trace] [  JLink] - JLINK_CORESIGHT_ReadAPDPReg(AP reg 0x03)  
[2026-May-29 11:04:19] [trace] [  JLink] - Value=0x84770001
[2026-May-29 11:04:19] [trace] [  JLink] - - 0.331ms returns 0  
[2026-May-29 11:04:19] [trace] [  JLink] - JLINK_HasError()  
[2026-May-29 11:04:19] [debug] [SeggerBackend] - read_access_port_register
[2026-May-29 11:04:19] [debug] [SeggerBackend] - ---just_read_access_port_register
[2026-May-29 11:04:19] [debug] [SeggerBackend] - ---just_select_access_port_register
[2026-May-29 11:04:19] [debug] [SeggerBackend] - Select AP 1, DP Bank 0, AP Bank 0
[2026-May-29 11:04:19] [trace] [  JLink] - JLINK_CORESIGHT_WriteAPDPReg(DP reg 0x02, 0x01000000)  
[2026-May-29 11:04:19] [trace] [  JLink] - - 0.235ms returns 0  
[2026-May-29 11:04:19] [trace] [  JLink] - JLINK_HasError()  
[2026-May-29 11:04:19] [trace] [  JLink] - JLINK_CORESIGHT_ReadAPDPReg(AP reg 0x00)  
[2026-May-29 11:04:19] [trace] [  JLink] - Value=0x43000002
[2026-May-29 11:04:19] [trace] [  JLink] - - 0.270ms returns 0  
[2026-May-29 11:04:19] [trace] [  JLink] - JLINK_HasError()  
[2026-May-29 11:04:19] [debug] [SeggerBackend] - read_access_port_idr
[2026-May-29 11:04:19] [debug] [SeggerBackend] - read_access_port_register
[2026-May-29 11:04:19] [debug] [SeggerBackend] - ---just_read_access_port_register
[2026-May-29 11:04:19] [debug] [SeggerBackend] - ---just_select_access_port_register
[2026-May-29 11:04:19] [debug] [SeggerBackend] - Select AP 2, DP Bank 0, AP Bank 15
[2026-May-29 11:04:19] [trace] [  JLink] - JLINK_CORESIGHT_WriteAPDPReg(DP reg 0x02, 0x020000F0)  
[2026-May-29 11:04:19] [trace] [  JLink] - - 0.214ms returns 0  
[2026-May-29 11:04:19] [trace] [  JLink] - JLINK_HasError()  
[2026-May-29 11:04:19] [trace] [  JLink] - JLINK_CORESIGHT_ReadAPDPReg(AP reg 0x03)  
[2026-May-29 11:04:19] [trace] [  JLink] - Value=0x12880000
[2026-May-29 11:04:19] [trace] [  JLink] - - 0.293ms returns 0  
[2026-May-29 11:04:19] [trace] [  JLink] - JLINK_HasError()  
[2026-May-29 11:04:19] [debug] [SeggerBackend] - read_access_port_register
[2026-May-29 11:04:19] [debug] [SeggerBackend] - ---just_read_access_port_register
[2026-May-29 11:04:19] [debug] [SeggerBackend] - ---just_select_access_port_register
[2026-May-29 11:04:19] [debug] [SeggerBackend] - Select AP 2, DP Bank 0, AP Bank 0
[2026-May-29 11:04:19] [trace] [  JLink] - JLINK_CORESIGHT_WriteAPDPReg(DP reg 0x02, 0x02000000)  
[2026-May-29 11:04:19] [trace] [  JLink] - - 0.283ms returns 0  
[2026-May-29 11:04:19] [trace] [  JLink] - JLINK_HasError()  
[2026-May-29 11:04:19] [trace] [  JLink] - JLINK_CORESIGHT_ReadAPDPReg(AP reg 0x00)  
[2026-May-29 11:04:19] [trace] [  JLink] - Value=0x00000000
[2026-May-29 11:04:19] [trace] [  JLink] - - 0.290ms returns 0  
[2026-May-29 11:04:19] [trace] [  JLink] - JLINK_HasError()  
[2026-May-29 11:04:19] [debug] [SeggerBackend] - read_access_port_idr
[2026-May-29 11:04:19] [debug] [SeggerBackend] - read_access_port_register
[2026-May-29 11:04:19] [debug] [SeggerBackend] - ---just_read_access_port_register
[2026-May-29 11:04:19] [debug] [SeggerBackend] - ---just_select_access_port_register
[2026-May-29 11:04:19] [debug] [SeggerBackend] - Select AP 3, DP Bank 0, AP Bank 15
[2026-May-29 11:04:19] [trace] [  JLink] - JLINK_CORESIGHT_WriteAPDPReg(DP reg 0x02, 0x030000F0)  
[2026-May-29 11:04:19] [trace] [  JLink] - - 0.278ms returns 0  
[2026-May-29 11:04:19] [trace] [  JLink] - JLINK_HasError()  
[2026-May-29 11:04:19] [trace] [  JLink] - JLINK_CORESIGHT_ReadAPDPReg(AP reg 0x03)  
[2026-May-29 11:04:19] [trace] [  JLink] - Value=0x12880000
[2026-May-29 11:04:19] [trace] [  JLink] - - 0.244ms returns 0  
[2026-May-29 11:04:19] [trace] [  JLink] - JLINK_HasError()  
[2026-May-29 11:04:19] [debug] [SeggerBackend] - read_access_port_register
[2026-May-29 11:04:19] [debug] [SeggerBackend] - ---just_read_access_port_register
[2026-May-29 11:04:19] [debug] [SeggerBackend] - ---just_select_access_port_register
[2026-May-29 11:04:19] [debug] [SeggerBackend] - Select AP 3, DP Bank 0, AP Bank 0
[2026-May-29 11:04:19] [trace] [  JLink] - JLINK_CORESIGHT_WriteAPDPReg(DP reg 0x02, 0x03000000)  
[2026-May-29 11:04:19] [trace] [  JLink] - - 0.217ms returns 0  
[2026-May-29 11:04:19] [trace] [  JLink] - JLINK_HasError()  
[2026-May-29 11:04:19] [trace] [  JLink] - JLINK_CORESIGHT_ReadAPDPReg(AP reg 0x00)  
[2026-May-29 11:04:19] [trace] [  JLink] - Value=0x00000000
[2026-May-29 11:04:19] [trace] [  JLink] - - 0.267ms returns 0  
[2026-May-29 11:04:19] [trace] [  JLink] - JLINK_HasError()  
[2026-May-29 11:04:19] [debug] [SeggerBackend] - read_access_port_idr
[2026-May-29 11:04:19] [debug] [SeggerBackend] - read_access_port_register
[2026-May-29 11:04:19] [debug] [SeggerBackend] - ---just_read_access_port_register
[2026-May-29 11:04:19] [debug] [SeggerBackend] - ---just_select_access_port_register
[2026-May-29 11:04:19] [debug] [SeggerBackend] - Select AP 4, DP Bank 0, AP Bank 15
[2026-May-29 11:04:19] [trace] [  JLink] - JLINK_CORESIGHT_WriteAPDPReg(DP reg 0x02, 0x040000F0)  
[2026-May-29 11:04:19] [trace] [  JLink] - - 0.218ms returns 0  
[2026-May-29 11:04:19] [trace] [  JLink] - JLINK_HasError()  
[2026-May-29 11:04:19] [trace] [  JLink] - JLINK_CORESIGHT_ReadAPDPReg(AP reg 0x03)  
[2026-May-29 11:04:19] [trace] [  JLink] - Value=0x00000000
[2026-May-29 11:04:19] [trace] [  JLink] - - 0.255ms returns 0  
[2026-May-29 11:04:19] [trace] [  JLink] - JLINK_HasError()  
[2026-May-29 11:04:19] [debug] [SeggerBackend] - read_access_port_register
[2026-May-29 11:04:19] [debug] [SeggerBackend] - ---just_read_access_port_register
[2026-May-29 11:04:19] [debug] [SeggerBackend] - ---just_select_access_port_register
[2026-May-29 11:04:19] [debug] [SeggerBackend] - Select AP 4, DP Bank 0, AP Bank 0
[2026-May-29 11:04:19] [trace] [  JLink] - JLINK_CORESIGHT_WriteAPDPReg(DP reg 0x02, 0x04000000)  
[2026-May-29 11:04:19] [trace] [  JLink] - - 0.277ms returns 0  
[2026-May-29 11:04:19] [trace] [  JLink] - JLINK_HasError()  
[2026-May-29 11:04:19] [trace] [  JLink] - JLINK_CORESIGHT_ReadAPDPReg(AP reg 0x00)  
[2026-May-29 11:04:19] [trace] [  JLink] - Value=0x00000000
[2026-May-29 11:04:19] [trace] [  JLink] - - 0.270ms returns 0  
[2026-May-29 11:04:19] [trace] [  JLink] - JLINK_HasError()  
[2026-May-29 11:04:19] [debug] [SeggerBackend] - read_access_port_idr
[2026-May-29 11:04:19] [debug] [SeggerBackend] - read_access_port_register
[2026-May-29 11:04:19] [debug] [SeggerBackend] - ---just_read_access_port_register
[2026-May-29 11:04:19] [debug] [SeggerBackend] - ---just_select_access_port_register
[2026-May-29 11:04:19] [debug] [SeggerBackend] - Select AP 5, DP Bank 0, AP Bank 15
[2026-May-29 11:04:19] [trace] [  JLink] - JLINK_CORESIGHT_WriteAPDPReg(DP reg 0x02, 0x050000F0)  
[2026-May-29 11:04:19] [trace] [  JLink] - - 0.260ms returns 0  
[2026-May-29 11:04:19] [trace] [  JLink] - JLINK_HasError()  
[2026-May-29 11:04:19] [trace] [  JLink] - JLINK_CORESIGHT_ReadAPDPReg(AP reg 0x03)  
[2026-May-29 11:04:19] [trace] [  JLink] - Value=0x00000000
[2026-May-29 11:04:19] [trace] [  JLink] - - 0.277ms returns 0  
[2026-May-29 11:04:19] [trace] [  JLink] - JLINK_HasError()  
[2026-May-29 11:04:19] [debug] [SeggerBackend] - read_access_port_register
[2026-May-29 11:04:19] [debug] [SeggerBackend] - ---just_read_access_port_register
[2026-May-29 11:04:19] [debug] [SeggerBackend] - ---just_select_access_port_register
[2026-May-29 11:04:19] [debug] [SeggerBackend] - Select AP 5, DP Bank 0, AP Bank 0
[2026-May-29 11:04:19] [trace] [  JLink] - JLINK_CORESIGHT_WriteAPDPReg(DP reg 0x02, 0x05000000)  
[2026-May-29 11:04:19] [trace] [  JLink] - - 0.291ms returns 0  
[2026-May-29 11:04:19] [trace] [  JLink] - JLINK_HasError()  
[2026-May-29 11:04:19] [trace] [  JLink] - JLINK_CORESIGHT_ReadAPDPReg(AP reg 0x00)  
[2026-May-29 11:04:19] [trace] [  JLink] - Value=0x00000000
[2026-May-29 11:04:19] [trace] [  JLink] - - 0.267ms returns 0  
[2026-May-29 11:04:19] [trace] [  JLink] - JLINK_HasError()  
[2026-May-29 11:04:19] [debug] [SeggerBackend] - read_access_port_idr
[2026-May-29 11:04:19] [debug] [SeggerBackend] - read_access_port_register
[2026-May-29 11:04:19] [debug] [SeggerBackend] - ---just_read_access_port_register
[2026-May-29 11:04:19] [debug] [SeggerBackend] - ---just_select_access_port_register
[2026-May-29 11:04:19] [debug] [SeggerBackend] - Select AP 6, DP Bank 0, AP Bank 15
[2026-May-29 11:04:19] [trace] [  JLink] - JLINK_CORESIGHT_WriteAPDPReg(DP reg 0x02, 0x060000F0)  
[2026-May-29 11:04:19] [trace] [  JLink] - - 0.321ms returns 0  
[2026-May-29 11:04:19] [trace] [  JLink] - JLINK_HasError()  
[2026-May-29 11:04:19] [trace] [  JLink] - JLINK_CORESIGHT_ReadAPDPReg(AP reg 0x03)  
[2026-May-29 11:04:19] [trace] [  JLink] - Value=0x00000000
[2026-May-29 11:04:19] [trace] [  JLink] - - 0.426ms returns 0  
[2026-May-29 11:04:19] [trace] [  JLink] - JLINK_HasError()  
[2026-May-29 11:04:19] [debug] [SeggerBackend] - read_access_port_register
[2026-May-29 11:04:19] [debug] [SeggerBackend] - ---just_read_access_port_register
[2026-May-29 11:04:19] [debug] [SeggerBackend] - ---just_select_access_port_register
[2026-May-29 11:04:19] [debug] [SeggerBackend] - Select AP 6, DP Bank 0, AP Bank 0
[2026-May-29 11:04:19] [trace] [  JLink] - JLINK_CORESIGHT_WriteAPDPReg(DP reg 0x02, 0x06000000)  
[2026-May-29 11:04:19] [trace] [  JLink] - - 0.402ms returns 0  
[2026-May-29 11:04:19] [trace] [  JLink] - JLINK_HasError()  
[2026-May-29 11:04:19] [trace] [  JLink] - JLINK_CORESIGHT_ReadAPDPReg(AP reg 0x00)  
[2026-May-29 11:04:19] [trace] [  JLink] - Value=0x00000000
[2026-May-29 11:04:19] [trace] [  JLink] - - 0.371ms returns 0  
[2026-May-29 11:04:19] [trace] [  JLink] - JLINK_HasError()  
[2026-May-29 11:04:19] [debug] [SeggerBackend] - read_access_port_idr
[2026-May-29 11:04:19] [debug] [SeggerBackend] - read_access_port_register
[2026-May-29 11:04:19] [debug] [SeggerBackend] - ---just_read_access_port_register
[2026-May-29 11:04:19] [debug] [SeggerBackend] - ---just_select_access_port_register
[2026-May-29 11:04:19] [debug] [SeggerBackend] - Select AP 7, DP Bank 0, AP Bank 15
[2026-May-29 11:04:19] [trace] [  JLink] - JLINK_CORESIGHT_WriteAPDPReg(DP reg 0x02, 0x070000F0)  
[2026-May-29 11:04:19] [trace] [  JLink] - - 0.363ms returns 0  
[2026-May-29 11:04:19] [trace] [  JLink] - JLINK_HasError()  
[2026-May-29 11:04:19] [trace] [  JLink] - JLINK_CORESIGHT_ReadAPDPReg(AP reg 0x03)  
[2026-May-29 11:04:19] [trace] [  JLink] - Value=0x00000000
[2026-May-29 11:04:19] [trace] [  JLink] - - 0.329ms returns 0  
[2026-May-29 11:04:19] [trace] [  JLink] - JLINK_HasError()  
[2026-May-29 11:04:19] [debug] [SeggerBackend] - read_access_port_register
[2026-May-29 11:04:19] [debug] [SeggerBackend] - ---just_read_access_port_register
[2026-May-29 11:04:19] [debug] [SeggerBackend] - ---just_select_access_port_register
[2026-May-29 11:04:19] [debug] [SeggerBackend] - Select AP 7, DP Bank 0, AP Bank 0
[2026-May-29 11:04:19] [trace] [  JLink] - JLINK_CORESIGHT_WriteAPDPReg(DP reg 0x02, 0x07000000)  
[2026-May-29 11:04:19] [trace] [  JLink] - - 0.285ms returns 0  
[2026-May-29 11:04:19] [trace] [  JLink] - JLINK_HasError()  
[2026-May-29 11:04:19] [trace] [  JLink] - JLINK_CORESIGHT_ReadAPDPReg(AP reg 0x00)  
[2026-May-29 11:04:19] [trace] [  JLink] - Value=0x00000000
[2026-May-29 11:04:19] [trace] [  JLink] - - 0.391ms returns 0  
[2026-May-29 11:04:19] [trace] [  JLink] - JLINK_HasError()  
[2026-May-29 11:04:19] [debug] [SeggerBackend] - read_access_port_idr
[2026-May-29 11:04:19] [debug] [SeggerBackend] - read_access_port_register
[2026-May-29 11:04:19] [debug] [SeggerBackend] - ---just_read_access_port_register
[2026-May-29 11:04:19] [debug] [SeggerBackend] - ---just_select_access_port_register
[2026-May-29 11:04:19] [debug] [SeggerBackend] - Select AP 8, DP Bank 0, AP Bank 15
[2026-May-29 11:04:19] [trace] [  JLink] - JLINK_CORESIGHT_WriteAPDPReg(DP reg 0x02, 0x080000F0)  
[2026-May-29 11:04:19] [trace] [  JLink] - - 0.345ms returns 0  
[2026-May-29 11:04:19] [trace] [  JLink] - JLINK_HasError()  
[2026-May-29 11:04:19] [trace] [  JLink] - JLINK_CORESIGHT_ReadAPDPReg(AP reg 0x03)  
[2026-May-29 11:04:19] [trace] [  JLink] - Value=0x00000000
[2026-May-29 11:04:19] [trace] [  JLink] - - 0.320ms returns 0  
[2026-May-29 11:04:19] [trace] [  JLink] - JLINK_HasError()  
[2026-May-29 11:04:19] [debug] [SeggerBackend] - read_access_port_register
[2026-May-29 11:04:19] [debug] [SeggerBackend] - ---just_read_access_port_register
[2026-May-29 11:04:19] [debug] [SeggerBackend] - ---just_select_access_port_register
[2026-May-29 11:04:19] [debug] [SeggerBackend] - Select AP 8, DP Bank 0, AP Bank 0
[2026-May-29 11:04:19] [trace] [  JLink] - JLINK_CORESIGHT_WriteAPDPReg(DP reg 0x02, 0x08000000)  
[2026-May-29 11:04:19] [trace] [  JLink] - - 0.253ms returns 0  
[2026-May-29 11:04:19] [trace] [  JLink] - JLINK_HasError()  
[2026-May-29 11:04:19] [trace] [  JLink] - JLINK_CORESIGHT_ReadAPDPReg(AP reg 0x00)  
[2026-May-29 11:04:19] [trace] [  JLink] - Value=0x00000000
[2026-May-29 11:04:19] [trace] [  JLink] - - 0.325ms returns 0  
[2026-May-29 11:04:19] [trace] [  JLink] - JLINK_HasError()  
[2026-May-29 11:04:19] [debug] [SeggerBackend] - read_access_port_idr
[2026-May-29 11:04:19] [debug] [SeggerBackend] - read_access_port_register
[2026-May-29 11:04:19] [debug] [SeggerBackend] - ---just_read_access_port_register
[2026-May-29 11:04:19] [debug] [SeggerBackend] - ---just_select_access_port_register
[2026-May-29 11:04:19] [debug] [SeggerBackend] - Select AP 9, DP Bank 0, AP Bank 15
[2026-May-29 11:04:19] [trace] [  JLink] - JLINK_CORESIGHT_WriteAPDPReg(DP reg 0x02, 0x090000F0)  
[2026-May-29 11:04:19] [trace] [  JLink] - - 0.252ms returns 0  
[2026-May-29 11:04:19] [trace] [  JLink] - JLINK_HasError()  
[2026-May-29 11:04:19] [trace] [  JLink] - JLINK_CORESIGHT_ReadAPDPReg(AP reg 0x03)  
[2026-May-29 11:04:19] [trace] [  JLink] - Value=0x00000000
[2026-May-29 11:04:19] [trace] [  JLink] - - 0.267ms returns 0  
[2026-May-29 11:04:19] [trace] [  JLink] - JLINK_HasError()  
[2026-May-29 11:04:19] [debug] [SeggerBackend] - read_access_port_register
[2026-May-29 11:04:19] [debug] [SeggerBackend] - ---just_read_access_port_register
[2026-May-29 11:04:19] [debug] [SeggerBackend] - ---just_select_access_port_register
[2026-May-29 11:04:19] [debug] [SeggerBackend] - Select AP 9, DP Bank 0, AP Bank 0
[2026-May-29 11:04:19] [trace] [  JLink] - JLINK_CORESIGHT_WriteAPDPReg(DP reg 0x02, 0x09000000)  
[2026-May-29 11:04:19] [trace] [  JLink] - - 0.219ms returns 0  
[2026-May-29 11:04:19] [trace] [  JLink] - JLINK_HasError()  
[2026-May-29 11:04:19] [trace] [  JLink] - JLINK_CORESIGHT_ReadAPDPReg(AP reg 0x00)  
[2026-May-29 11:04:19] [trace] [  JLink] - Value=0x00000000
[2026-May-29 11:04:19] [trace] [  JLink] - - 0.272ms returns 0  
[2026-May-29 11:04:19] [trace] [  JLink] - JLINK_HasError()  
[2026-May-29 11:04:19] [debug] [SeggerBackend] - read_access_port_idr
[2026-May-29 11:04:19] [debug] [SeggerBackend] - read_access_port_register
[2026-May-29 11:04:19] [debug] [SeggerBackend] - ---just_read_access_port_register
[2026-May-29 11:04:19] [debug] [SeggerBackend] - ---just_select_access_port_register
[2026-May-29 11:04:19] [debug] [SeggerBackend] - Select AP 10, DP Bank 0, AP Bank 15
[2026-May-29 11:04:19] [trace] [  JLink] - JLINK_CORESIGHT_WriteAPDPReg(DP reg 0x02, 0x0A0000F0)  
[2026-May-29 11:04:19] [trace] [  JLink] - - 0.218ms returns 0  
[2026-May-29 11:04:19] [trace] [  JLink] - JLINK_HasError()  
[2026-May-29 11:04:19] [trace] [  JLink] - JLINK_CORESIGHT_ReadAPDPReg(AP reg 0x03)  
[2026-May-29 11:04:19] [trace] [  JLink] - Value=0x00000000
[2026-May-29 11:04:19] [trace] [  JLink] - - 0.264ms returns 0  
[2026-May-29 11:04:19] [trace] [  JLink] - JLINK_HasError()  
[2026-May-29 11:04:19] [debug] [SeggerBackend] - read_access_port_register
[2026-May-29 11:04:19] [debug] [SeggerBackend] - ---just_read_access_port_register
[2026-May-29 11:04:19] [debug] [SeggerBackend] - ---just_select_access_port_register
[2026-May-29 11:04:19] [debug] [SeggerBackend] - Select AP 10, DP Bank 0, AP Bank 0
[2026-May-29 11:04:19] [trace] [  JLink] - JLINK_CORESIGHT_WriteAPDPReg(DP reg 0x02, 0x0A000000)  
[2026-May-29 11:04:19] [trace] [  JLink] - - 0.246ms returns 0  
[2026-May-29 11:04:19] [trace] [  JLink] - JLINK_HasError()  
[2026-May-29 11:04:19] [trace] [  JLink] - JLINK_CORESIGHT_ReadAPDPReg(AP reg 0x00)  
[2026-May-29 11:04:19] [trace] [  JLink] - Value=0x00000000
[2026-May-29 11:04:19] [trace] [  JLink] - - 0.286ms returns 0  
[2026-May-29 11:04:19] [trace] [  JLink] - JLINK_HasError()  
[2026-May-29 11:04:19] [debug] [SeggerBackend] - read_access_port_idr
[2026-May-29 11:04:19] [debug] [SeggerBackend] - read_access_port_register
[2026-May-29 11:04:19] [debug] [SeggerBackend] - ---just_read_access_port_register
[2026-May-29 11:04:19] [debug] [SeggerBackend] - ---just_select_access_port_register
[2026-May-29 11:04:19] [debug] [SeggerBackend] - Select AP 11, DP Bank 0, AP Bank 15
[2026-May-29 11:04:19] [trace] [  JLink] - JLINK_CORESIGHT_WriteAPDPReg(DP reg 0x02, 0x0B0000F0)  
[2026-May-29 11:04:19] [trace] [  JLink] - - 0.242ms returns 0  
[2026-May-29 11:04:19] [trace] [  JLink] - JLINK_HasError()  
[2026-May-29 11:04:19] [trace] [  JLink] - JLINK_CORESIGHT_ReadAPDPReg(AP reg 0x03)  
[2026-May-29 11:04:19] [trace] [  JLink] - Value=0x00000000
[2026-May-29 11:04:19] [trace] [  JLink] - - 0.310ms returns 0  
[2026-May-29 11:04:19] [trace] [  JLink] - JLINK_HasError()  
[2026-May-29 11:04:19] [debug] [SeggerBackend] - read_access_port_register
[2026-May-29 11:04:19] [debug] [SeggerBackend] - ---just_read_access_port_register
[2026-May-29 11:04:19] [debug] [SeggerBackend] - ---just_select_access_port_register
[2026-May-29 11:04:19] [debug] [SeggerBackend] - Select AP 11, DP Bank 0, AP Bank 0
[2026-May-29 11:04:19] [trace] [  JLink] - JLINK_CORESIGHT_WriteAPDPReg(DP reg 0x02, 0x0B000000)  
[2026-May-29 11:04:19] [trace] [  JLink] - - 0.218ms returns 0  
[2026-May-29 11:04:19] [trace] [  JLink] - JLINK_HasError()  
[2026-May-29 11:04:19] [trace] [  JLink] - JLINK_CORESIGHT_ReadAPDPReg(AP reg 0x00)  
[2026-May-29 11:04:19] [trace] [  JLink] - Value=0x00000000
[2026-May-29 11:04:19] [trace] [  JLink] - - 0.266ms returns 0  
[2026-May-29 11:04:19] [trace] [  JLink] - JLINK_HasError()  
[2026-May-29 11:04:19] [debug] [SeggerBackend] - read_access_port_idr
[2026-May-29 11:04:19] [debug] [SeggerBackend] - read_access_port_register
[2026-May-29 11:04:19] [debug] [SeggerBackend] - ---just_read_access_port_register
[2026-May-29 11:04:19] [debug] [SeggerBackend] - ---just_select_access_port_register
[2026-May-29 11:04:19] [debug] [SeggerBackend] - Select AP 12, DP Bank 0, AP Bank 15
[2026-May-29 11:04:19] [trace] [  JLink] - JLINK_CORESIGHT_WriteAPDPReg(DP reg 0x02, 0x0C0000F0)  
[2026-May-29 11:04:19] [trace] [  JLink] - - 0.261ms returns 0  
[2026-May-29 11:04:19] [trace] [  JLink] - JLINK_HasError()  
[2026-May-29 11:04:19] [trace] [  JLink] - JLINK_CORESIGHT_ReadAPDPReg(AP reg 0x03)  
[2026-May-29 11:04:19] [trace] [  JLink] - Value=0x00000000
[2026-May-29 11:04:19] [trace] [  JLink] - - 5.185ms returns 0  
[2026-May-29 11:04:19] [trace] [  JLink] - JLINK_HasError()  
[2026-May-29 11:04:19] [debug] [SeggerBackend] - read_access_port_register
[2026-May-29 11:04:19] [debug] [SeggerBackend] - ---just_read_access_port_register
[2026-May-29 11:04:19] [debug] [SeggerBackend] - ---just_select_access_port_register
[2026-May-29 11:04:19] [debug] [SeggerBackend] - Select AP 12, DP Bank 0, AP Bank 0
[2026-May-29 11:04:19] [trace] [  JLink] - JLINK_CORESIGHT_WriteAPDPReg(DP reg 0x02, 0x0C000000)  
[2026-May-29 11:04:19] [trace] [  JLink] - - 0.286ms returns 0  
[2026-May-29 11:04:19] [trace] [  JLink] - JLINK_HasError()  
[2026-May-29 11:04:19] [trace] [  JLink] - JLINK_CORESIGHT_ReadAPDPReg(AP reg 0x00)  
[2026-May-29 11:04:19] [trace] [  JLink] - Value=0x00000000
[2026-May-29 11:04:19] [trace] [  JLink] - - 0.258ms returns 0  
[2026-May-29 11:04:19] [trace] [  JLink] - JLINK_HasError()  
[2026-May-29 11:04:19] [debug] [SeggerBackend] - read_access_port_idr
[2026-May-29 11:04:19] [debug] [SeggerBackend] - read_access_port_register
[2026-May-29 11:04:19] [debug] [SeggerBackend] - ---just_read_access_port_register
[2026-May-29 11:04:19] [debug] [SeggerBackend] - ---just_select_access_port_register
[2026-May-29 11:04:19] [debug] [SeggerBackend] - Select AP 13, DP Bank 0, AP Bank 15
[2026-May-29 11:04:19] [trace] [  JLink] - JLINK_CORESIGHT_WriteAPDPReg(DP reg 0x02, 0x0D0000F0)  
[2026-May-29 11:04:19] [trace] [  JLink] - - 0.217ms returns 0  
[2026-May-29 11:04:19] [trace] [  JLink] - JLINK_HasError()  
[2026-May-29 11:04:19] [trace] [  JLink] - JLINK_CORESIGHT_ReadAPDPReg(AP reg 0x03)  
[2026-May-29 11:04:19] [trace] [  JLink] - Value=0x00000000
[2026-May-29 11:04:19] [trace] [  JLink] - - 0.259ms returns 0  
[2026-May-29 11:04:19] [trace] [  JLink] - JLINK_HasError()  
[2026-May-29 11:04:19] [debug] [SeggerBackend] - read_access_port_register
[2026-May-29 11:04:19] [debug] [SeggerBackend] - ---just_read_access_port_register
[2026-May-29 11:04:19] [debug] [SeggerBackend] - ---just_select_access_port_register
[2026-May-29 11:04:19] [debug] [SeggerBackend] - Select AP 13, DP Bank 0, AP Bank 0
[2026-May-29 11:04:19] [trace] [  JLink] - JLINK_CORESIGHT_WriteAPDPReg(DP reg 0x02, 0x0D000000)  
[2026-May-29 11:04:19] [trace] [  JLink] - - 0.223ms returns 0  
[2026-May-29 11:04:19] [trace] [  JLink] - JLINK_HasError()  
[2026-May-29 11:04:19] [trace] [  JLink] - JLINK_CORESIGHT_ReadAPDPReg(AP reg 0x00)  
[2026-May-29 11:04:19] [trace] [  JLink] - Value=0x00000000
[2026-May-29 11:04:19] [trace] [  JLink] - - 0.254ms returns 0  
[2026-May-29 11:04:19] [trace] [  JLink] - JLINK_HasError()  
[2026-May-29 11:04:19] [debug] [SeggerBackend] - read_access_port_idr
[2026-May-29 11:04:19] [debug] [SeggerBackend] - read_access_port_register
[2026-May-29 11:04:19] [debug] [SeggerBackend] - ---just_read_access_port_register
[2026-May-29 11:04:19] [debug] [SeggerBackend] - ---just_select_access_port_register
[2026-May-29 11:04:19] [debug] [SeggerBackend] - Select AP 14, DP Bank 0, AP Bank 15
[2026-May-29 11:04:19] [trace] [  JLink] - JLINK_CORESIGHT_WriteAPDPReg(DP reg 0x02, 0x0E0000F0)  
[2026-May-29 11:04:19] [trace] [  JLink] - - 0.238ms returns 0  
[2026-May-29 11:04:19] [trace] [  JLink] - JLINK_HasError()  
[2026-May-29 11:04:19] [trace] [  JLink] - JLINK_CORESIGHT_ReadAPDPReg(AP reg 0x03)  
[2026-May-29 11:04:19] [trace] [  JLink] - Value=0x00000000
[2026-May-29 11:04:19] [trace] [  JLink] - - 0.254ms returns 0  
[2026-May-29 11:04:19] [trace] [  JLink] - JLINK_HasError()  
[2026-May-29 11:04:19] [debug] [SeggerBackend] - read_access_port_register
[2026-May-29 11:04:19] [debug] [SeggerBackend] - ---just_read_access_port_register
[2026-May-29 11:04:19] [debug] [SeggerBackend] - ---just_select_access_port_register
[2026-May-29 11:04:19] [debug] [SeggerBackend] - Select AP 14, DP Bank 0, AP Bank 0
[2026-May-29 11:04:19] [trace] [  JLink] - JLINK_CORESIGHT_WriteAPDPReg(DP reg 0x02, 0x0E000000)  
[2026-May-29 11:04:19] [trace] [  JLink] - - 0.208ms returns 0  
[2026-May-29 11:04:19] [trace] [  JLink] - JLINK_HasError()  
[2026-May-29 11:04:19] [trace] [  JLink] - JLINK_CORESIGHT_ReadAPDPReg(AP reg 0x00)  
[2026-May-29 11:04:19] [trace] [  JLink] - Value=0x00000000
[2026-May-29 11:04:19] [trace] [  JLink] - - 0.709ms returns 0  
[2026-May-29 11:04:19] [trace] [  JLink] - JLINK_HasError()  
[2026-May-29 11:04:19] [debug] [SeggerBackend] - read_access_port_idr
[2026-May-29 11:04:19] [debug] [SeggerBackend] - read_access_port_register
[2026-May-29 11:04:19] [debug] [SeggerBackend] - ---just_read_access_port_register
[2026-May-29 11:04:19] [debug] [SeggerBackend] - ---just_select_access_port_register
[2026-May-29 11:04:19] [debug] [SeggerBackend] - Select AP 15, DP Bank 0, AP Bank 15
[2026-May-29 11:04:19] [trace] [  JLink] - JLINK_CORESIGHT_WriteAPDPReg(DP reg 0x02, 0x0F0000F0)  
[2026-May-29 11:04:19] [trace] [  JLink] - - 0.284ms returns 0  
[2026-May-29 11:04:19] [trace] [  JLink] - JLINK_HasError()  
[2026-May-29 11:04:19] [trace] [  JLink] - JLINK_CORESIGHT_ReadAPDPReg(AP reg 0x03)  
[2026-May-29 11:04:19] [trace] [  JLink] - Value=0x00000000
[2026-May-29 11:04:19] [trace] [  JLink] - - 0.366ms returns 0  
[2026-May-29 11:04:19] [trace] [  JLink] - JLINK_HasError()  
[2026-May-29 11:04:19] [debug] [SeggerBackend] - read_access_port_register
[2026-May-29 11:04:19] [debug] [SeggerBackend] - ---just_read_access_port_register
[2026-May-29 11:04:19] [debug] [SeggerBackend] - ---just_select_access_port_register
[2026-May-29 11:04:19] [debug] [SeggerBackend] - Select AP 15, DP Bank 0, AP Bank 0
[2026-May-29 11:04:19] [trace] [  JLink] - JLINK_CORESIGHT_WriteAPDPReg(DP reg 0x02, 0x0F000000)  
[2026-May-29 11:04:19] [trace] [  JLink] - - 0.261ms returns 0  
[2026-May-29 11:04:19] [trace] [  JLink] - JLINK_HasError()  
[2026-May-29 11:04:19] [trace] [  JLink] - JLINK_CORESIGHT_ReadAPDPReg(AP reg 0x00)  
[2026-May-29 11:04:19] [trace] [  JLink] - Value=0x00000000
[2026-May-29 11:04:19] [trace] [  JLink] - - 0.299ms returns 0  
[2026-May-29 11:04:19] [trace] [  JLink] - JLINK_HasError()  
[2026-May-29 11:04:19] [debug] [SeggerBackend] - read_access_port_idr
[2026-May-29 11:04:19] [debug] [SeggerBackend] - read_access_port_register
[2026-May-29 11:04:19] [debug] [SeggerBackend] - ---just_read_access_port_register
[2026-May-29 11:04:19] [debug] [SeggerBackend] - ---just_select_access_port_register
[2026-May-29 11:04:19] [debug] [SeggerBackend] - Select AP 16, DP Bank 0, AP Bank 15
[2026-May-29 11:04:19] [trace] [  JLink] - JLINK_CORESIGHT_WriteAPDPReg(DP reg 0x02, 0x100000F0)  
[2026-May-29 11:04:19] [trace] [  JLink] - - 0.251ms returns 0  
[2026-May-29 11:04:19] [trace] [  JLink] - JLINK_HasError()  
[2026-May-29 11:04:19] [trace] [  JLink] - JLINK_CORESIGHT_ReadAPDPReg(AP reg 0x03)  
[2026-May-29 11:04:19] [trace] [  JLink] - Value=0x00000000
[2026-May-29 11:04:19] [trace] [  JLink] - - 0.277ms returns 0  
[2026-May-29 11:04:19] [trace] [  JLink] - JLINK_HasError()  
[2026-May-29 11:04:19] [debug] [SeggerBackend] - read_access_port_register
[2026-May-29 11:04:19] [debug] [SeggerBackend] - ---just_read_access_port_register
[2026-May-29 11:04:19] [debug] [SeggerBackend] - ---just_select_access_port_register
[2026-May-29 11:04:19] [debug] [SeggerBackend] - Select AP 16, DP Bank 0, AP Bank 0
[2026-May-29 11:04:19] [trace] [  JLink] - JLINK_CORESIGHT_WriteAPDPReg(DP reg 0x02, 0x10000000)  
[2026-May-29 11:04:19] [trace] [ Client] - Command connect_to_emu_with_snr executed for 452 milliseconds with result 0
[2026-May-29 11:04:19] [debug] [ Client] - read_connected_emu_snr
[2026-May-29 11:04:19] [trace] [  JLink] - - 0.211ms returns 0  
[2026-May-29 11:04:19] [trace] [  JLink] - JLINK_HasError()  
[2026-May-29 11:04:19] [trace] [  JLink] - JLINK_CORESIGHT_ReadAPDPReg(AP reg 0x00)  
[2026-May-29 11:04:19] [trace] [  JLink] - Value=0x00000000
[2026-May-29 11:04:19] [trace] [  JLink] - - 0.257ms returns 0  
[2026-May-29 11:04:19] [trace] [  JLink] - JLINK_HasError()  
[2026-May-29 11:04:19] [debug] [SeggerBackend] - read_access_port_idr
[2026-May-29 11:04:19] [debug] [SeggerBackend] - read_access_port_register
[2026-May-29 11:04:19] [debug] [SeggerBackend] - ---just_read_access_port_register
[2026-May-29 11:04:19] [debug] [SeggerBackend] - ---just_select_access_port_register
[2026-May-29 11:04:19] [debug] [SeggerBackend] - Select AP 17, DP Bank 0, AP Bank 15
[2026-May-29 11:04:19] [trace] [  JLink] - JLINK_CORESIGHT_WriteAPDPReg(DP reg 0x02, 0x110000F0)  
[2026-May-29 11:04:19] [trace] [  JLink] - - 0.205ms returns 0  
[2026-May-29 11:04:19] [trace] [  JLink] - JLINK_HasError()  
[2026-May-29 11:04:19] [trace] [  JLink] - JLINK_CORESIGHT_ReadAPDPReg(AP reg 0x03)  
[2026-May-29 11:04:19] [trace] [  JLink] - Value=0x00000000
[2026-May-29 11:04:19] [trace] [  JLink] - - 0.272ms returns 0  
[2026-May-29 11:04:19] [trace] [  JLink] - JLINK_HasError()  
[2026-May-29 11:04:19] [debug] [SeggerBackend] - read_access_port_register
[2026-May-29 11:04:19] [debug] [SeggerBackend] - ---just_read_access_port_register
[2026-May-29 11:04:19] [debug] [SeggerBackend] - ---just_select_access_port_register
[2026-May-29 11:04:19] [debug] [SeggerBackend] - Select AP 17, DP Bank 0, AP Bank 0
[2026-May-29 11:04:19] [trace] [  JLink] - JLINK_CORESIGHT_WriteAPDPReg(DP reg 0x02, 0x11000000)  
[2026-May-29 11:04:19] [trace] [  JLink] - - 0.217ms returns 0  
[2026-May-29 11:04:19] [trace] [  JLink] - JLINK_HasError()  
[2026-May-29 11:04:19] [trace] [  JLink] - JLINK_CORESIGHT_ReadAPDPReg(AP reg 0x00)  
[2026-May-29 11:04:19] [trace] [  JLink] - Value=0x00000000
[2026-May-29 11:04:19] [trace] [  JLink] - - 0.302ms returns 0  
[2026-May-29 11:04:19] [trace] [  JLink] - JLINK_HasError()  
[2026-May-29 11:04:19] [debug] [SeggerBackend] - read_access_port_register
[2026-May-29 11:04:19] [debug] [SeggerBackend] - ---just_read_access_port_register
[2026-May-29 11:04:19] [debug] [SeggerBackend] - ---just_select_access_port_register
[2026-May-29 11:04:19] [debug] [SeggerBackend] - Select AP 2, DP Bank 0, AP Bank 3
[2026-May-29 11:04:19] [trace] [  JLink] - JLINK_CORESIGHT_WriteAPDPReg(DP reg 0x02, 0x02000030)  
[2026-May-29 11:04:19] [trace] [  JLink] - - 0.225ms returns 0  
[2026-May-29 11:04:19] [trace] [  JLink] - JLINK_HasError()  
[2026-May-29 11:04:19] [trace] [  JLink] - JLINK_CORESIGHT_ReadAPDPReg(AP reg 0x00)  
[2026-May-29 11:04:19] [trace] [  JLink] - Value=0x00000007
[2026-May-29 11:04:19] [trace] [  JLink] - - 0.259ms returns 0  
[2026-May-29 11:04:19] [trace] [  JLink] - JLINK_HasError()  
[2026-May-29 11:04:19] [ info] [  nRFXX] - Discovered device from family NRF53.
[2026-May-29 11:04:19] [trace] [  JLink] - - 0.028ms   
[2026-May-29 11:04:19] [debug] [  nRF53] - Just_load_coprocessor_data
[2026-May-29 11:04:19] [debug] [SeggerBackend] - set_core_data
[2026-May-29 11:04:19] [debug] [SeggerBackend] - Set core data:
[2026-May-29 11:04:19] [debug] [SeggerBackend] -   Device ID: Cortex-M33
[2026-May-29 11:04:19] [debug] [SeggerBackend] -   Expected core: 235012351
[2026-May-29 11:04:19] [debug] [SeggerBackend] -   Existing Expected core: 4294967295
[2026-May-29 11:04:19] [debug] [SeggerBackend] -   Coprocessor: APPLICATION
[2026-May-29 11:04:19] [debug] [SeggerBackend] -   AHB AP index: 0
[2026-May-29 11:04:19] [debug] [SeggerBackend] -   Core base address: 4294967295
[2026-May-29 11:04:19] [debug] [SeggerBackend] - ---set_coresight_ahb_ap_index
[2026-May-29 11:04:19] [trace] [  JLink] - JLINK_ExecCommand("CORESIGHT_SetIndexAHBAPToUse = 0", ...).   
[2026-May-29 11:04:19] [trace] [  JLink] - - 0.032ms returns 0x00  
[2026-May-29 11:04:19] [trace] [  JLink] - JLINK_HasError()  
[2026-May-29 11:04:19] [trace] [  JLink] - JLINK_ExecCommand("device = Cortex-M33", ...).   
[2026-May-29 11:04:19] [trace] [  JLink] - Device "CORTEX-M33" selected.
[2026-May-29 11:04:19] [trace] [  JLink] - - 13.365ms returns 0x00  
[2026-May-29 11:04:19] [trace] [  JLink] - JLINK_HasError()  
[2026-May-29 11:04:19] [trace] [ Worker] - Command connect_to_emu_with_snr executed for 447 milliseconds with result 0
[2026-May-29 11:04:19] [trace] [ Client] - Command read_connected_emu_snr executed for 16 milliseconds with result 0
[2026-May-29 11:04:19] [debug] [ Client] - read_device_family
[2026-May-29 11:04:19] [debug] [  nRF53] - read_connected_emu_snr
[2026-May-29 11:04:19] [debug] [SeggerBackend] - is_connected_to_emu
[2026-May-29 11:04:19] [trace] [  JLink] - JLINK_IsOpen()  
[2026-May-29 11:04:19] [trace] [  JLink] - - 0.016ms returns 0x01  
[2026-May-29 11:04:19] [trace] [  JLink] - JLINK_HasError()  
[2026-May-29 11:04:19] [trace] [  JLink] - JLINK_Lock()  
[2026-May-29 11:04:19] [debug] [SeggerBackend] - read_connected_emu_snr
[2026-May-29 11:04:19] [trace] [  JLink] - - 0.008ms   
[2026-May-29 11:04:19] [trace] [ Worker] - Command read_connected_emu_snr executed for 0 milliseconds with result 0
[2026-May-29 11:04:19] [trace] [ Client] - Command read_device_family executed for 14 milliseconds with result 0
[2026-May-29 11:04:19] [debug] [ Client] - select_family
[2026-May-29 11:04:19] [debug] [  nRF53] - read_device_family
[2026-May-29 11:04:19] [trace] [ Worker] - Command read_device_family executed for 0 milliseconds with result 0
[2026-May-29 11:04:19] [trace] [ Client] - Command select_family executed for 0 milliseconds with result 0
[2026-May-29 11:04:19] [debug] [ Client] - recover
[2026-May-29 11:04:19] [debug] [  nRF53] - Just_load_coprocessor_data
[2026-May-29 11:04:19] [debug] [SeggerBackend] - set_core_data
[2026-May-29 11:04:19] [debug] [SeggerBackend] - Set core data:
[2026-May-29 11:04:19] [debug] [SeggerBackend] -   Device ID: Cortex-M33
[2026-May-29 11:04:19] [debug] [SeggerBackend] -   Expected core: 235012351
[2026-May-29 11:04:19] [debug] [SeggerBackend] -   Existing Expected core: 235012351
[2026-May-29 11:04:19] [debug] [SeggerBackend] -   Coprocessor: APPLICATION
[2026-May-29 11:04:19] [debug] [SeggerBackend] -   AHB AP index: 0
[2026-May-29 11:04:19] [debug] [SeggerBackend] -   Core base address: 4294967295
[2026-May-29 11:04:19] [trace] [ Worker] - Command select_family executed for 0 milliseconds with result 0
[2026-May-29 11:04:19] [debug] [  nRF53] - recover
[2026-May-29 11:04:19] [debug] [SeggerBackend] - is_connected_to_emu
[2026-May-29 11:04:19] [trace] [  JLink] - JLINK_IsOpen()  
[2026-May-29 11:04:19] [trace] [  JLink] - - 0.018ms returns 0x01  
[2026-May-29 11:04:19] [trace] [  JLink] - JLINK_HasError()  
[2026-May-29 11:04:19] [trace] [  JLink] - JLINK_Lock()  
[2026-May-29 11:04:19] [debug] [SeggerBackend] - is_connected_to_emu
[2026-May-29 11:04:19] [debug] [  nRF53] - just_recover
[2026-May-29 11:04:19] [debug] [  nRF53] - Just_is_eraseprotect_enabled
[2026-May-29 11:04:19] [debug] [SeggerBackend] - read_access_port_register
[2026-May-29 11:04:19] [debug] [SeggerBackend] - ---just_read_access_port_register
